# GHz S RI R 50

1.000000000000000e-01  1.1693207509559286e-02  3.7432734091443600e-03  9.8729008836452248e-01 -1.0201672029288913e-01  9.8729008836452181e-01 -1.0201672029288911e-01  1.0459617442542389e-02  3.8706156971002460e-03
2.672500000000000e-01  1.5343774053080470e-02  7.6166493401749209e-03  9.5304696860561422e-01 -2.6802293142957628e-01  9.5304696860561267e-01 -2.6802293142957617e-01  1.4116066014749584e-02  7.8938986322737263e-03
4.345000000000001e-01  1.9957599174430352e-02  7.7552427514107564e-03  8.9148904486450598e-01 -4.2383994208930131e-01  8.9148904486450686e-01 -4.2383994208930176e-01  1.8828319248966552e-02  8.2245174856428911e-03
6.017500000000000e-01  2.2992269930917596e-02  5.1928295346820551e-03  8.0519843015762527e-01 -5.6594177074493612e-01  8.0519843015762482e-01 -5.6594177074493512e-01  2.2041258404636256e-02  5.8097091417144290e-03
7.690000000000000e-01  2.4309217065366907e-02  1.8265037073597057e-03  6.9709041333520638e-01 -6.9087338969100132e-01  6.9709041333520616e-01 -6.9087338969100132e-01  2.3572803861514630e-02  2.5096053348689753e-03
9.362500000000000e-01  2.4051972663172716e-02 -1.4752685754561238e-03  5.7034478897460195e-01 -7.9568917087502766e-01  5.7034478897460228e-01 -7.9568917087502800e-01  2.3543088753057384e-02 -8.0314291972657611e-04
1.103500000000000e+00  2.1752430223075839e-02 -3.7450824626142180e-03  4.2848657897197007e-01 -8.7754959978594949e-01  4.2848657897196918e-01 -8.7754959978594993e-01  2.1483754214247870e-02 -3.1771789791595092e-03
1.270750000000000e+00  1.9742649235675633e-02 -4.7843243054755645e-03  2.7562424598553292e-01 -9.3476192002704417e-01  2.7562424598553170e-01 -9.3476192002704428e-01  1.9651162424688628e-02 -4.4059579400658076e-03
1.438000000000000e+00  1.8548518058968757e-02 -5.3894962431799923e-03  1.1558146037707290e-01 -9.6594123334421422e-01  1.1558146037707130e-01 -9.6594123334421378e-01  1.8556422397323396e-02 -5.2413888309227911e-03
1.605250000000000e+00  1.7643291202113581e-02 -6.0070409032907538e-03 -4.7218399095316110e-02 -9.6991364221460175e-01 -4.7218399095316478e-02 -9.6991364221460075e-01  1.7677944077677539e-02 -6.1129082664549399e-03
1.772500000000000e+00  1.6756890175313004e-02 -6.3903843820042735e-03 -2.0792693471747348e-01 -9.4665681675337965e-01 -2.0792693471747384e-01 -9.4665681675337821e-01  1.6732931690794615e-02 -6.7642633362622667e-03
1.939750000000000e+00  1.6272369356721335e-02 -6.3647544605034759e-03 -3.6207512612726278e-01 -8.9721290242954044e-01 -3.6207512612726300e-01 -8.9721290242953988e-01  1.6085165188840404e-02 -6.9900020650317824e-03
2.107000000000000e+00  1.6594194818805925e-02 -6.4939920057700551e-03 -5.0566440237777133e-01 -8.2306026793935028e-01 -5.0566440237777111e-01 -8.2306026793934983e-01  1.6145157141517943e-02 -7.3031035386788620e-03
2.274250000000000e+00  1.7256488245180560e-02 -7.5999659251688861e-03 -6.3470405998867363e-01 -7.2610300352874069e-01 -6.3470405998867274e-01 -7.2610300352874046e-01  1.6490759382378675e-02 -8.4848342852154712e-03
2.441500000000000e+00  1.7152485151630512e-02 -9.6918235067412831e-03 -7.4535082233701555e-01 -6.0919286335337852e-01 -7.4535082233701544e-01 -6.0919286335337874e-01  1.6074865560713452e-02 -1.0538376009891388e-02
2.608750000000000e+00  1.5628718841628364e-02 -1.1825895926580142e-02 -8.3460403094833646e-01 -4.7605393142866659e-01 -8.3460403094833469e-01 -4.7605393142866725e-01  1.4289470699125811e-02 -1.2542767900469962e-02
2.776000000000000e+00  1.2995042011833810e-02 -1.2978108779108689e-02 -9.0047332236078748e-01 -3.3060023676790945e-01 -9.0047332236078759e-01 -3.3060023676791023e-01  1.1465983719715822e-02 -1.3501236527398720e-02
2.943250000000000e+00  1.0062902371413350e-02 -1.2751842727047406e-02 -9.4151084458533285e-01 -1.7662894942200230e-01 -9.4151084458533285e-01 -1.7662894942200469e-01  8.4257084058246574e-03 -1.3034007119282065e-02
3.110500000000000e+00  7.4858137549272258e-03 -1.1340282462888034e-02 -9.5655086527865940e-01 -1.8126231850919994e-02 -9.5655086527865973e-01 -1.8126231850920906e-02  5.8342331029717582e-03 -1.1348766948224356e-02
3.277750000000000e+00  5.5171318431258970e-03 -9.0865132930573952e-03 -9.4501755332313919e-01  1.4047942709961864e-01 -9.4501755332314019e-01  1.4047942709961825e-01  3.9574059274021496e-03 -8.8219382300479040e-03
3.445000000000000e+00  4.2065152391804993e-03 -6.1395650418339734e-03 -9.0732467203143063e-01  2.9458806652691627e-01 -9.0732467203142964e-01  2.9458806652691694e-01  2.8446304801543667e-03 -5.6575493039066347e-03
3.612250000000000e+00  3.7602534431726477e-03 -2.4632239302327524e-03 -8.4482506874723062e-01  4.3994151547603039e-01 -8.4482506874723129e-01  4.3994151547603039e-01  2.6768609065663850e-03 -1.8668868629686873e-03
3.779500000000000e+00  4.7027716623755066e-03  1.8048712411477263e-03 -7.5939653233072402e-01  5.7279516382749862e-01 -7.5939653233072302e-01  5.7279516382749918e-01  3.9299745755310925e-03  2.3963806366649916e-03
3.946750000000000e+00  7.5589292216304144e-03  5.9710807723167073e-03 -6.5324850455161720e-01  6.8966219432306719e-01 -6.5324850455161587e-01  6.8966219432306508e-01  7.0779881653554640e-03  6.4514896697808665e-03
4.114000000000000e+00  1.2234557622927633e-02  8.9194211620435247e-03 -5.2919258290044047e-01  7.8720274030241699e-01 -5.2919258290043891e-01  7.8720274030241499e-01  1.1990546593139985e-02  9.2095608939023570e-03
4.281250000000000e+00  1.7820765465316052e-02  9.8447312910345079e-03 -3.9082258534130787e-01  8.6262502193264168e-01 -3.9082258534130748e-01  8.6262502193263957e-01  1.7739169139753253e-02  9.8960647609924283e-03
4.448500000000000e+00  2.3232981242289619e-02  8.7821361811278378e-03 -2.4211477671994802e-01  9.1405934064025030e-01 -2.4211477671994877e-01  9.1405934064025085e-01  2.3229508789619976e-02  8.5848628193517622e-03
4.615750000000000e+00  2.7954287813458163e-02  6.2413174308365987e-03 -8.6963145351832694e-02  9.4031859111763239e-01 -8.6963145351831833e-02  9.4031859111763316e-01  2.7930394542198290e-02  5.8288394959352874e-03
4.783000000000000e+00  3.1887961766253213e-02  2.4711974834862177e-03  7.0660748293824849e-02  9.4050652711421356e-01  7.0660748293824141e-02  9.4050652711421323e-01  3.1757189397815647e-02  1.9035258445903262e-03
4.950250000000000e+00  3.4678152006880875e-02 -2.6436139228382116e-03  2.2632410535645892e-01  9.1422716741421250e-01  2.2632410535646105e-01  9.1422716741421195e-01  3.4398580973663356e-02 -3.2835643887057413e-03
5.117500000000001e+00  3.5468278946766157e-02 -8.9505483224123633e-03  3.7532798621460373e-01  8.6213182969782176e-01  3.7532798621460595e-01  8.6213182969782354e-01  3.5044420535835653e-02 -9.5805788351964356e-03
5.284750000000001e+00  3.3366636001248035e-02 -1.5524506299900237e-02  5.1336609443416337e-01  7.8597271888365361e-01  5.1336609443416492e-01  7.8597271888365394e-01  3.2832737448547845e-02 -1.6088491448193475e-02
5.452000000000000e+00  2.8141881261611032e-02 -2.0779809227895255e-02  6.3686213142030679e-01  6.8807361900139774e-01  6.3686213142030690e-01  6.8807361900139807e-01  2.7537074449607964e-02 -2.1253265450606931e-02
5.619250000000000e+00  2.0629248112087537e-02 -2.3080283617486388e-02  7.4268425430650864e-01  5.7089317148677621e-01  7.4268425430650664e-01  5.7089317148677621e-01  1.9981222311213929e-02 -2.3458038343825215e-02
5.786500000000000e+00  1.2603424253836162e-02 -2.1523258845035698e-02  8.2771825808661781e-01  4.3718529577293652e-01  8.2771825808661925e-01  4.3718529577293830e-01  1.1927876775445575e-02 -2.1803324703329543e-02
5.953750000000000e+00  6.0608200736477977e-03 -1.6479088347179760e-02  8.8895441235706429e-01  2.9052982663380039e-01  8.8895441235706307e-01  2.9052982663380078e-01  5.3704889110464567e-03 -1.6655013336543470e-02
6.121000000000000e+00  2.2293495469153561e-03 -9.3867808476309905e-03  9.2416923897380054e-01  1.3549143871956629e-01  9.2416923897380199e-01  1.3549143871956967e-01  1.5397893223974032e-03 -9.4507599692653758e-03
6.288250000000001e+00  1.1356338068908220e-03 -1.7617783041464358e-03  9.3246480361337714e-01 -2.2987148216851161e-02  9.3246480361338069e-01 -2.2987148216849142e-02  4.5916952853184654e-04 -1.7113057336781564e-03
6.455500000000001e+00  2.2555969798355030e-03  5.6512138149861224e-03  9.1398745344878318e-01 -1.8031211891586346e-01  9.1398745344878662e-01 -1.8031211891586391e-01  1.5905558344554722e-03  5.8111545747287314e-03
6.622750000000001e+00  5.4405732888292146e-03  1.2599636442922266e-02  8.6932130692463105e-01 -3.3221272332606760e-01  8.6932130692463239e-01 -3.3221272332606705e-01  4.7749001989626427e-03  1.2860826214937438e-02
6.790000000000000e+00  1.0869043350430388e-02  1.8430772725442721e-02  7.9952705704365357e-01 -4.7428549584516411e-01  7.9952705704365590e-01 -4.7428549584516383e-01  1.0199233805760967e-02  1.8788167962777845e-02
6.957250000000000e+00  1.8198090991703567e-02  2.1947108521698226e-02  7.0666048980249363e-01 -6.0209011656628086e-01  7.0666048980249363e-01 -6.0209011656628308e-01  1.7541227068393409e-02  2.2396434328745475e-02
7.124500000000000e+00  2.6151633490610809e-02  2.2198039100593300e-02  5.9384476179710333e-01 -7.1178531987510929e-01  5.9384476179710355e-01 -7.1178531987511118e-01  2.5539923699090389e-02  2.2724002818562416e-02
7.291750000000000e+00  3.3028023096084630e-02  1.9211545470732297e-02  4.6476252625150427e-01 -8.0048161624398284e-01  4.6476252625150272e-01 -8.0048161624398306e-01  3.2493108029914772e-02  1.9780168263722246e-02
7.459000000000001e+00  3.7540936821878521e-02  1.3983464699283618e-02  3.2323587473281506e-01 -8.6603915810259002e-01  3.2323587473281695e-01 -8.6603915810259180e-01  3.7099565530058651e-02  1.4545900204376115e-02
7.626250000000001e+00  3.9294342715057606e-02  7.8598096522959210e-03  1.7327109962680931e-01 -9.0680688686509958e-01  1.7327109962681070e-01 -9.0680688686509947e-01  3.8942951814841344e-02  8.3630847939974249e-03
7.793500000000001e+00  3.8606631444567482e-02  1.8351561050532345e-03  1.9243156721279520e-02 -9.2175073335191415e-01  1.9243156721279985e-02 -9.2175073335191515e-01  3.8324324478915407e-02  2.2308895068347610e-03
7.960750000000001e+00  3.5867600822989329e-02 -3.6681384861751466e-03 -1.3428377503203087e-01 -9.1078253233722095e-01 -1.3428377503202715e-01 -9.1078253233722217e-01  3.5619976262344505e-02 -3.4210310232327895e-03
8.128000000000000e+00  3.1092480869407274e-02 -8.3128588960140193e-03 -2.8302912761041515e-01 -8.7473921791638165e-01 -2.8302912761041016e-01 -8.7473921791638232e-01  3.0830537851772699e-02 -8.2455716672162616e-03
8.295249999999999e+00  2.4298607416023882e-02 -1.1247588648336970e-02 -4.2316077485243947e-01 -8.1498006115666688e-01 -4.2316077485243492e-01 -8.1498006115667310e-01  2.3958489779191471e-02 -1.1371551237361608e-02
8.462500000000000e+00  1.6314548923955181e-02 -1.1347105641706656e-02 -5.5102664432287196e-01 -7.3322973452226237e-01 -5.5102664432286863e-01 -7.3322973452226803e-01  1.5828398240120754e-02 -1.1642104055732787e-02
8.629750000000001e+00  8.8664792667251888e-03 -8.2187134380064530e-03 -6.6309963434060160e-01 -6.3187941803209324e-01 -6.6309963434060104e-01 -6.3187941803210124e-01  8.1819741465035296e-03 -8.6322023731885220e-03
8.797000000000001e+00  3.6225962426171404e-03 -2.7998067771112245e-03 -7.5642771351286608e-01 -5.1410552271302534e-01 -7.5642771351286586e-01 -5.1410552271303012e-01  2.7175761108414807e-03 -3.2602107240408832e-03
8.964250000000000e+00  1.1555019652037812e-03  3.1616435387057384e-03 -8.2896963659087508e-01 -3.8340649186023512e-01 -8.2896963659087153e-01 -3.8340649186023246e-01  3.9779180694562604e-05  2.7277159961418751e-03
9.131500000000001e+00  7.8810711420468360e-04  8.2267008404100922e-03 -8.7929326038390498e-01 -2.4311160433403839e-01 -8.7929326038389943e-01 -2.4311160433403500e-01 -5.0351539128642455e-04  7.8834312060119521e-03
9.298750000000000e+00  1.3812063432263877e-03  1.2014050269497615e-02 -9.0606446951668851e-01 -9.6552708214152322e-02 -9.0606446951668185e-01 -9.6552708214150379e-02 -3.3228287904237168e-05  1.1813212948235690e-02
9.466000000000001e+00  2.3882179998663822e-03  1.4967760153077540e-02 -9.0820771569768011e-01  5.2322807002552194e-02 -9.0820771569768222e-01  5.2322807002554407e-02  9.2143735082937488e-04  1.4946341287748686e-02
9.633250000000000e+00  4.1930862845132588e-03  1.7273321410051529e-02 -8.8586139651398943e-01  1.9901498669285606e-01 -8.8586139651399687e-01  1.9901498669286902e-01  2.7607383091526171e-03  1.7442872217277142e-02
9.800500000000001e+00  7.2023152428936088e-03  1.8000345413293609e-02 -8.4083004051270893e-01  3.3990143520273658e-01 -8.4083004051270949e-01  3.3990143520276156e-01  5.8918665049469314e-03  1.8333357311064277e-02
9.967750000000001e+00  1.0552331279835507e-02  1.5566699151632002e-02 -7.7499686808494272e-01  4.7376843082247039e-01 -7.7499686808493906e-01  4.7376843082247677e-01  9.4290357191293365e-03  1.5992222096767726e-02
1.013500000000000e+01  1.2499269317619709e-02  1.2315255272704551e-02 -6.8636242750318999e-01  5.9480125990844490e-01 -6.8636242750318965e-01  5.9480125990844745e-01  1.1529869885708904e-02  1.2848379730289954e-02
1.030225000000000e+01  1.3409309376501685e-02  9.5478214804111811e-03 -5.7830346193727489e-01  6.9910884941330365e-01 -5.7830346193727256e-01  6.9910884941330420e-01  1.2677541366849154e-02  1.0048032358835732e-02
1.046950000000000e+01  1.3672211353805822e-02  6.7349312048392840e-03 -4.5406198263235215e-01  7.8447382908740115e-01 -4.5406198263235265e-01  7.8447382908740115e-01  1.3176531929538002e-02  7.1070962784721692e-03
1.063675000000000e+01  1.3345612455967243e-02  3.9570623567050985e-03 -3.1682540294038242e-01  8.4831050573887179e-01 -3.1682540294038303e-01  8.4831050573887157e-01  1.3041827093487302e-02  4.1097445775677699e-03
1.080400000000000e+01  1.2589188437951898e-02  1.4601262398253184e-03 -1.7025244605423850e-01  8.8851670355096213e-01 -1.7025244605423950e-01  8.8851670355096335e-01  1.2398463994930869e-02  1.3317732605957686e-03
1.097125000000000e+01  1.1735033988314547e-02 -6.4090734548293005e-04 -1.8414907573630845e-02  9.0361880649436710e-01 -1.8414907573630627e-02  9.0361880649436865e-01  1.1562612887593290e-02 -1.0699553800615175e-03
1.113850000000000e+01  1.1070249847214095e-02 -2.4781248354193430e-03  1.3434532926590770e-01  8.9287453505023606e-01  1.3434532926590767e-01  8.9287453505023606e-01  1.0823173527979948e-02 -3.1856849972421741e-03
1.130575000000000e+01  1.0669048079044136e-02 -4.2959055639513744e-03  2.8356462448871345e-01  8.5631229325229352e-01  2.8356462448871511e-01  8.5631229325229374e-01  1.0270233584856790e-02 -5.2230929539605576e-03
1.147300000000000e+01  1.0415498581410401e-02 -6.2733166962997688e-03  4.2478686792156778e-01  7.9475478822539825e-01  4.2478686792156828e-01  7.9475478822539980e-01  9.8165856606133497e-03 -7.3317445379760485e-03
1.164025000000000e+01  1.0116378074097654e-02 -8.4584035640210484e-03  5.5371028443759440e-01  7.0983738542150698e-01  5.5371028443759485e-01  7.0983738542150743e-01  9.3100036937800706e-03 -9.5409673226120473e-03
1.180750000000000e+01  9.5714222436313057e-03 -1.0786978431773524e-02  6.6636159679228035e-01  6.0398557354406313e-01  6.6636159679228091e-01  6.0398557354406357e-01  8.5988406840531197e-03 -1.1784343654248693e-02
1.197475000000000e+01  8.5940966395704199e-03 -1.3086624141125519e-02  7.5925853210906147e-01  4.8033933365715087e-01  7.5925853210906136e-01  4.8033933365715070e-01  7.5409563991264113e-03 -1.3908690603695810e-02
1.214200000000000e+01  7.0629978846577096e-03 -1.5049675972159671e-02  8.2954504060699585e-01  3.4264661988539435e-01  8.2954504060699574e-01  3.4264661988539341e-01  6.0369681871901741e-03 -1.5646913350157596e-02
1.230925000000000e+01  5.0309329715081050e-03 -1.6256675356233083e-02  8.7510856817381688e-01  1.9513147217162646e-01  8.7510856817381688e-01  1.9513147217162588e-01  4.1234285953629405e-03 -1.6630997399269449e-02
1.247650000000000e+01  2.8071247378011806e-03 -1.6310121934620336e-02  8.9466892210277194e-01  4.2330098836451224e-02  8.9466892210276927e-01  4.2330098836450801e-02  2.0624310923436791e-03 -1.6505108616478928e-02
1.264375000000000e+01  9.0459069910999584e-04 -1.5015192419990553e-02  8.8781720956008248e-01 -1.1109601198356339e-01  8.8781720956008037e-01 -1.1109601198356323e-01  3.4167804749876522e-04 -1.5095066494921199e-02
1.281100000000000e+01 -1.3911334770312644e-04 -1.2460361176560339e-02  8.5500127721828534e-01 -2.6053897060528791e-01  8.5500127721828378e-01 -2.6053897060528819e-01 -4.2591672476566402e-04 -1.2521601776760861e-02
1.297825000000000e+01  9.9741532222821783e-05 -8.9238634374002590e-03  7.9747895640672350e-01 -4.0159766453774681e-01  7.9747895640672228e-01 -4.0159766453774776e-01  3.5111974670166133e-04 -9.1656665476164967e-03
1.314550000000000e+01  2.0759627899930438e-03 -4.7674451372590916e-03  7.1725362101752432e-01 -5.3021016166918478e-01  7.1725362101752244e-01 -5.3021016166918555e-01  3.0109329667291690e-03 -5.4071490453181633e-03
1.331275000000000e+01  6.6681198118996449e-03 -8.9022070323512004e-04  6.1700454316304520e-01 -6.4275966692091779e-01  6.1700454316304398e-01 -6.4275966692091757e-01  7.0644193259461084e-03 -1.1173006815777815e-03
1.348000000000000e+01  1.3815729633106448e-02  5.6453423655145052e-04  5.0000442554210300e-01 -7.3619737738500657e-01  5.0000442554210234e-01 -7.3619737738500668e-01  1.1408310011438851e-02  3.7252839628136849e-03
1.364725000000000e+01  2.0719552118537363e-02 -4.1193205334023875e-04  3.6992488341194035e-01 -8.0820392895241944e-01  3.6992488341194041e-01 -8.0820392895241944e-01  1.6743201421301424e-02  6.7074026773052010e-03
1.381450000000000e+01  2.7087614473911517e-02  1.0121478678907725e-02  2.3004055986925892e-01 -8.5722210216284322e-01  2.3004055986925814e-01 -8.5722210216284267e-01  3.9591125564071294e-02 -2.3362887586367538e-03
1.398175000000000e+01  2.9607218093633189e-02 -6.8199438006471824e-03  8.6625561912777926e-02 -8.8223036078597405e-01  8.6625561912778107e-02 -8.8223036078597328e-01  2.6672862853864377e-02  6.0158655538092715e-03
1.414900000000000e+01  3.2763908608941170e-02 -9.7762954222560400e-03 -5.8720258829527472e-02 -8.8325032477620169e-01 -5.8720258829528506e-02 -8.8325032477620391e-01  3.1501562080524133e-02 -4.0581737322573324e-04
1.431625000000000e+01  3.3202531605031060e-02 -1.3736050679002633e-02 -2.0149220457210351e-01 -8.6072101435070059e-01 -2.0149220457210315e-01 -8.6072101435070081e-01  3.2611103076794448e-02 -8.1256541487011308e-03
1.448350000000000e+01  3.1122081206515065e-02 -1.7132019780167561e-02 -3.3824391598081083e-01 -8.1553981457675440e-01 -3.3824391598081222e-01 -8.1553981457675306e-01  2.9738402233631982e-02 -1.4148733435160890e-02
1.465075000000000e+01  2.9285424075954178e-02 -2.0002506954930693e-02 -4.6556426735809725e-01 -7.4892936476860161e-01 -4.6556426735809836e-01 -7.4892936476860150e-01  2.6241838772824062e-02 -1.7982865912886097e-02
1.481800000000000e+01  2.3005993887578777e-02 -1.4429944317507354e-02 -5.8037377966028358e-01 -6.6272367633313001e-01 -5.8037377966028492e-01 -6.6272367633313123e-01  2.5831946733103964e-02 -1.6392700105983714e-02
1.498525000000000e+01  1.8807875081743992e-02 -1.8899609334330408e-02 -6.7939829424509213e-01 -5.5921896391293724e-01 -6.7939829424509146e-01 -5.5921896391293546e-01  1.9735691871343639e-02 -1.8329952420985212e-02
1.515250000000000e+01  1.4497418531763243e-02 -1.8295347745272250e-02 -7.6043972860301212e-01 -4.4099928374214636e-01 -7.6043972860301212e-01 -4.4099928374214648e-01  1.5041111255422885e-02 -1.7755438976291074e-02
1.531975000000000e+01  1.0348339811820845e-02 -1.5459818817847297e-02 -8.2133609377190386e-01 -3.1101724620778637e-01 -8.2133609377190475e-01 -3.1101724620778681e-01  1.0659580191553816e-02 -1.5056062819749728e-02
