! Touchstone file exported from HFSS 2021.2.0
!        File:           D:/20220920 new project/ISC_3rd_design/NewISC_3_with_imtiaz_dim_connector.aedt
!        Generated:      1:07:22 AM  Aug 03, 2023
!        Design:         Line1_1
!        Project:        NewISC_3_with_imtiaz_dim_connector
!        Setup:          Setup2
!        Solution:       Sweep
!
! Variables:
!        $_L_pin_on = 0.01nH
!        $_R_pin_on = 1ohm
!        Con_T = 0.012mm
!        Con_W = 0.11534mm
!        DUT = 26.2374mm
!        Gap = 0.71534mm
!        Gap_connector_vias = 1mm
!        L1 = 22.21mm
!        Radius = 0.225mm
!        Space = 0.837mm
!        Sub_L = 9.5988mm
!        Sub_T = 0.05mm
!        Sub_W = 13.8408mm
!        Vias_N = 40
!        Vias_gap = 1.01045128205128mm
!        quater_wave_L = 1.2798mm
!
# GHz S RI R 50.000000
! Terminal data exported
! Port[1] = 1
! Port[2] = 2
0.1                            0.00938224067343738 -0.00101326209993494 0.980456782377851 -0.138189870435598 0.980456782377852 -0.138189870435598 0.00751134144488541 -0.00101392567067195 
! Gamma         0.224790309424615 3.28500343613836 0.224719748928477 3.28468588040035 
! Port Impedance         50               0                50               0                
0.26725                        0.00976879135424661 -0.00403671037152956 0.91891485920248 -0.3594635327847 0.91891485920248 -0.359463532784699 0.00809269317308917 -0.00350871084769579 
! Gamma         0.297739540236344 8.73530770769651 0.298079788589898 8.73373017035306 
! Port Impedance         50               0                50               0                
0.4345                         0.00959647584843036 -0.00784752547705733 0.809063175757592 -0.557859451740167 0.809063175757591 -0.557859451740166 0.00832043895233066 -0.0070421623032863 
! Gamma         0.39345924794716 14.1435138658764 0.394258113194665 14.1405560184593 
! Port Impedance         50               0                50               0                
0.60175                        0.00828054223888577 -0.0111034726499424 0.658106594312303 -0.724433749295891 0.658106594312303 -0.72443374929589 0.00745250859605507 -0.0102423532450294 
! Gamma         0.488613421878595 19.5226759494495 0.489875104491358 19.5182618373672 
! Port Impedance         50               0                50               0                
0.769                          0.00740295810919353 -0.0125877315227476 0.474703996802349 -0.851473775335409 0.47470399680235 -0.851473775335409 0.00695454320263687 -0.0118709873553874 
! Gamma         0.577589109315789 24.8853347232947 0.579348282847269 24.87939963026   
! Port Impedance         50               0                50               0                
0.93625                        0.00845823675347218 -0.0129927642984471 0.268638930676454 -0.933479751948491 0.268638930676453 -0.933479751948491 0.00827705325334722 -0.0125715292988271 
! Gamma         0.658182019687752 30.2363070134881 0.660466525004168 30.2287504739781 
! Port Impedance         50               0                50               0                
1.1035                         0.0120727992125275 -0.0136860178300323 0.0503385072287287 -0.966881311530425 0.0503385072287288 -0.966881311530426 0.0120064417908041 -0.0136615457791041 
! Gamma         0.729986658206948 35.5792131475104 0.732795512641548 35.5699305898192 
! Port Impedance         50               0                50               0                
1.27075                        0.0183242190568113 -0.0168593735175553 -0.16901669262053 -0.950260731814297 -0.16901669262053 -0.950260731814297 0.0181797017835166 -0.0172410154267812 
! Gamma         0.796779469927676 40.9187599207919 0.800103649785966 40.9076866666694 
! Port Impedance         50               0                50               0                
1.438                          0.0256196898090735 -0.0240861351849909 -0.378230103507304 -0.884790003708573 -0.378230103507304 -0.884790003708572 0.0252250437798751 -0.0247925318031124 
! Gamma         0.859430975432899 46.2556742258697 0.863255692348268 46.2427532835764 
! Port Impedance         50               0                50               0                
1.60525                        0.03164184087297 -0.0360841844974513 -0.566593133966109 -0.774074691205811 -0.566593133966109 -0.774074691205811 0.0308783324605127 -0.0369699733681639 
! Gamma         0.919029334959822 51.590630914692  0.923339385767586 51.5758166228106 
! Port Impedance         50               0                50               0                
1.7725                         0.03377223830054 -0.0522458916889524 -0.724414400773454 -0.624133898616303 -0.724414400773453 -0.624133898616303 0.0325927122462474 -0.0531351561503053 
! Gamma         0.9763033688889  56.9239694223064 0.981084727913801 56.9072242396251 
! Port Impedance         50               0                50               0                
1.93975                        0.0298416814970165 -0.0705744350795374 -0.843683484063434 -0.443145744133295 -0.843683484063434 -0.443145744133295 0.028277996057737 -0.0712908058304222 
! Gamma         1.03173555691418 62.2558831924984 1.03697580428225 62.2371753058157 
! Port Impedance         50               0                50               0                
2.107                          0.0188346063132543 -0.0880450748307756 -0.918637803105059 -0.240911630482704 -0.918637803105059 -0.240911630482704 0.0169933841755427 -0.0884428533731127 
! Gamma         1.08564741712132 67.5865048777044 1.09133564847146 67.5658065558606 
! Port Impedance         50               0                50               0                
2.27425                        0.00130741425948203 -0.10129149869976 -0.946070161917301 -0.0281360936100149 -0.946070161917301 -0.0281360936100149 -0.000649219044142446 -0.101284525008061 
! Gamma         1.13825797412056 72.9159430486071 1.14438453185395 72.8932295595905 
! Port Impedance         50               0                50               0                
2.4415                         -0.0205875836220191 -0.107399621126867 -0.925335655694337 0.184294471186674 -0.925335655694337 0.184294471186673 -0.0224744337073696 -0.106980118675733 
! Gamma         1.18972194729234 78.2442967595632 1.1962781332783  78.2195456733495 
! Port Impedance         50               0                50               0                
2.60875                        -0.0434352100258782 -0.104614491349314 -0.858147287591635 0.385897234909016 -0.858147287591636 0.385897234909016 -0.0450823377822343 -0.103855486077454 
! Gamma         1.24015395648661 83.5716603650136 1.24713178924826 83.544851104936  
! Port Impedance         50               0                50               0                
2.776                          -0.0631627726848525 -0.0928468701659904 -0.748278362310935 0.567009657617141 -0.748278362310935 0.567009657617141 -0.0644502672277176 -0.0918868362169488 
! Gamma         1.28964350905699 88.8981243689514 1.29703554097128 88.8692379163772 
! Port Impedance         50               0                50               0                
2.94325                        -0.0758363743200804 -0.0738915831069691 -0.601255716219461 0.719055834143807 -0.601255716219461 0.719055834143808 -0.0767175454313626 -0.0729052928920202 
! Gamma         1.33826408973248 94.2237749353162 1.34606327930364 94.1927936259545 
! Port Impedance         50               0                50               0                
3.1105                         -0.0785236729082429 -0.051273275937337 -0.42411769389371 0.834704015072913 -0.42411769389371 0.834704015072913 -0.0790323005160458 -0.0504360454983039 
! Gamma         1.38607857305688 99.5486931825111 1.39427820052757 99.5156005564503 
! Port Impedance         50               0                50               0                
3.27775                        -0.0700425290729858 -0.0297007771792374 -0.225286630446374 0.908016056105436 -0.225286630446374 0.908016056105436 -0.0702837885891813 -0.0291537733991269 
! Gamma         1.43314239882059 104.872954678696 1.44173601288225 104.837735361919 
! Port Impedance         50               0                50               0                
3.445                          -0.051422879938703 -0.0142070014401385 -0.0145035056618287 0.934724145468921 -0.0145035056618289 0.934724145468921 -0.0515503898686026 -0.014029916436453 
! Gamma         1.47950542184875 110.196629236895 1.48848680715577 110.15926884176  
! Port Impedance         50               0                50               0                
3.61225                        -0.0259574023965967 -0.00911224023242441 0.197342689381022 0.912692769384368 0.197342689381022 0.912692769384368 -0.0261405648342913 -0.00930695412136346 
! Gamma         1.52521299857351 115.51978097953  1.53457615630068 115.480266017508 
! Port Impedance         50               0                50               0                
3.7795                         0.00123726028503456 -0.016988842760312 0.398674907404464 0.842467057913481 0.398674907404464 0.842467057913481 0.000842362303572847 -0.0174738657385224 
! Gamma         1.57030664832031 120.84246860103  1.58004578433255 120.800786404213 
! Port Impedance         50               0                50               0                
3.94675                        0.0241260451884073 -0.0378812578738782 0.578053715947842 0.727680014725308 0.578053715947842 0.727680014725307 0.0234019320942031 -0.0385312978312116 
! Gamma         1.61482448622919 126.164745755023 1.62493400329068 126.120884404703 
! Port Impedance         50               0                50               0                
4.114                          0.0370607131978365 -0.0690541045789302 0.725260026454627 0.575066978469879 0.725260026454626 0.575066978469878 0.0359800612801504 -0.0697120768133918 
! Gamma         1.65880153837422 131.486661505268 1.66927603018652 131.440609766712 
! Port Impedance         50               0                50               0                
4.28125                        0.0360869148358935 -0.105354765883686 0.832372645033531 0.393940310759882 0.83237264503353 0.393940310759881 0.0346946177718769 -0.105859941584447 
! Gamma         1.70226999823251 136.808260795523 1.71310424403204 136.760008058476 
! Port Impedance         50               0                50               0                
4.4485                         0.0199173367998516 -0.140260546826734 0.894512700134679 0.195190459304843 0.894512700134679 0.195190459304844 0.0183217142877179 -0.14049086968137 
! Gamma         1.74525945406961 142.129584908299 1.75644841312993 142.079121132854 
! Port Impedance         50               0                50               0                
4.61575                        -0.00971128438524457 -0.167263942982457 0.910026542220389 -0.00992795468696091 0.910026542220388 -0.00992795468695806 -0.0113612191038301 -0.167160469809077 
! Gamma         1.78779710050967 147.450671894201 1.79933590627557 147.397987561743 
! Port Impedance         50               0                50               0                
4.783                          -0.048396522541217 -0.181224687699715 0.880092073230254 -0.210868383121591 0.880092073230253 -0.21086838312159 -0.0499428473395566 -0.180801667983732 
! Gamma         1.82990793911562 152.771556962264 1.84179189291712 152.716643031128 
! Port Impedance         50               0                50               0                
4.95025                        -0.0899788813359973 -0.179344495438986 0.807955802560142 -0.398435942548933 0.807955802560142 -0.398435942548931 -0.0912871959642732 -0.178684332301644 
! Gamma         1.87161496883823 158.092272827594 1.88383953324909 158.035120693105 
! Port Impedance         50               0                50               0                
5.1175                         -0.127698017471985 -0.161599309162892 0.6981331863106  -0.564911767223831 0.6981331863106  -0.564911767223828 -0.128683966932881 -0.160834445803078 
! Gamma         1.91293936565818 163.412850016518 1.92550015761505 163.353451475035 
! Port Impedance         50               0                50               0                
5.28475                        -0.155311285839941 -0.130675665052117 0.555870003298982 -0.703792307837234 0.555870003298982 -0.703792307837234 -0.15595667103388 -0.129961470205643 
! Gamma         1.95390065043845 168.733317131691 1.96679343424928 168.671664348287 
! Port Impedance         50               0                50               0                
5.452                          -0.168036062320057 -0.0915711108482999 0.386996491433152 -0.809410771427755 0.386996491433156 -0.809410771427756 -0.168392096897697 -0.0910548265971244 
! Gamma         1.99451684424431 174.053701080832 2.00773752460692 173.989786560258 
! Port Impedance         50               0                50               0                
5.61925                        -0.163323482330044 -0.0509723983870011 0.198124952821859 -0.876695653345213 0.198124952821859 -0.876695653345212 -0.1635007641245 -0.0507636044802802 
! Gamma         2.03480461080911 179.374027273235 2.04834922594218 179.307843833821 
! Port Impedance         50               0                50               0                
5.7865                         -0.141487775698428 -0.0163960862839348 -0.00295660465896459 -0.901234215280541 -0.00295660465896363 -0.901234215280539 -0.141634594937432 -0.0165439280020279 
! Gamma         2.07477938624394 184.694319788227 2.08864410121182 184.625860538407 
! Port Impedance         50               0                50               0                
5.95375                        -0.106095836384792 0.00499036669781545 -0.206888916593202 -0.879743867299984 -0.206888916593201 -0.879743867299983 -0.106368286165819 0.00450886138085507 
! Gamma         2.1144554964318  190.014601519517 2.12863659672275 189.943859836702 
! Port Impedance         50               0                50               0                
6.121                          -0.0638650273867971 0.00786628120106113 -0.402623714685332 -0.810983930181529 -0.402623714685331 -0.810983930181529 -0.0643937868787393 0.00714380808335124 
! Gamma         2.15384626278925 195.334894299018 2.16834014818811 195.261863810529 
! Port Impedance         50               0                50               0                
6.28825                        -0.023747268852442 -0.00966702619354534 -0.577953940972496 -0.696938160205414 -0.577953940972496 -0.696938160205414 -0.0246072744916101 -0.0104859087053785 
! Gamma         2.19296409722672 200.655219003271 2.20776727600681 200.57989356913  
! Port Impedance         50               0                50               0                
6.4555                         0.00495671288070113 -0.0450042221595585 -0.720949727736575 -0.54374738425981 -0.720949727736575 -0.54374738425981 0.00376596844560138 -0.0457550786119591 
! Gamma         2.23182058720967 205.975595645207 2.24692967065557 205.897969342557 
! Port Impedance         50               0                50               0                
6.62275                        0.0150964722532905 -0.091185203111241 -0.822062315680573 -0.361640753260421 -0.822062315680573 -0.361640753260421 0.0136521845317627 -0.0917233851778713 
! Gamma         2.27042657183497 211.296043453555 2.28583826909784 211.216110562535 
! Port Impedance         50               0                50               0                
6.79                           0.00378461967389528 -0.138629217464173 -0.875985885373197 -0.163440226704326 -0.875985885373198 -0.163440226704326 0.00222058674424747 -0.138864889196049 
! Gamma         2.30879220980925 216.616580941853 2.32450332308871 216.534335932763 
! Port Impedance         50               0                50               0                
6.95725                        -0.0269884502683574 -0.177848095412837 -0.882198669208052 0.0378571388643524 -0.882198669208052 0.0378571388643537 -0.0285159483344238 -0.177764525825291 
! Gamma         2.34692704016286 221.93722596869  2.36293446020383 221.852663490301 
! Port Impedance         50               0                50               0                
7.1245                         -0.0714912702225291 -0.201779059587311 -0.8438979624588 0.231149324276137 -0.843897962458799 0.231149324276138 -0.0728387541646531 -0.201431760734121 
! Gamma         2.38484003646624 227.257995790551 2.40114073835524 227.171110659435 
! Port Impedance         50               0                50               0                
7.29175                        -0.122207842573427 -0.206726069113379 -0.76618682983775 0.407972320209921 -0.76618682983775 0.407972320209923 -0.123273401797981 -0.206228091241104 
! Gamma         2.42253965524268 232.578907108381 2.43913069448591 232.489694299151 
! Port Impedance         50               0                50               0                
7.459                          -0.171383382249516 -0.19208611998651 -0.65469015149894 0.562046581819272 -0.654690151498939 0.562046581819272 -0.172126152012462 -0.191583889522536 
! Gamma         2.46003387919924 237.899976108826 2.47691238806287 237.808430745181 
! Port Impedance         50               0                50               0                
7.62625                        -0.211747872802967 -0.159805636869491 -0.515044961944262 0.688489951335183 -0.515044961944262 0.688489951335183 -0.212195311464871 -0.159449344946149 
! Gamma         2.49733025582829 243.221218500916 2.51449343992124 243.127335847413 
! Port Impedance         50               0                50               0                
7.7935                         -0.236921836359567 -0.114196977028956 -0.352900067896784 0.783294794752529 -0.352900067896784 0.783294794752529 -0.237163595463092 -0.114111721856746 
! Gamma         2.53443593186903 248.542649548851 2.55188106694813 248.446425003316 
! Port Impedance         50               0                50               0                
7.96075                        -0.242124925316576 -0.0619555972726818 -0.17400521819126 0.843016926276692 -0.174005218191261 0.843016926276693 -0.242296044906637 -0.0622191919832209 
! Gamma         2.57135768406127 253.864284101422 2.58908211303927 253.765713187942 
! Port Impedance         50               0                50               0                
8.128                          -0.225306445101198 -0.0118347268786844 0.0155643081296177 0.864447977579753 0.0155643081296166 0.864447977579753 -0.225564856105239 -0.0124649337079487 
! Gamma         2.60810194657368 259.186136618534 2.62610307671124 259.085214980955 
! Port Impedance         50               0                50               0                
8.29525                        -0.18837050339747 0.0264313106478339 0.208765340138883 0.844428832838345 0.208765340138882 0.844428832838347 -0.188873164457425 0.0254804739005237 
! Gamma         2.64467483544497 264.508221195196 2.66295013570864 264.40494459109  
! Port Impedance         50               0                50               0                
8.4625                         -0.137963195654658 0.0441224797056697 0.396584606458175 0.780371711788677 0.396584606458174 0.780371711788678 -0.138843272260799 0.0429569286342547 
! Gamma         2.68108217033837 269.83055158332  2.69962916890769 269.724915878358 
! Port Impedance         50               0                50               0                
8.62975                        -0.0850450166854219 0.0363165326552871 0.567453066880877 0.67195089004464 0.567453066880877 0.671950890044641 -0.0863909915190388 0.0350921733740538 
! Gamma         2.71732949387751 275.153141211584 2.7361457757855  275.045142374286 
! Port Impedance         50               0                50               0                
