! Touchstone file exported from HFSS 2021.2.0
!        File:           D:/20220920 new project/ISC_3rd_design/NewISC_3_with_imtiaz_dim_connector.aedt
!        Generated:      1:08:33 AM  Aug 03, 2023
!        Design:         Reflect1
!        Project:        NewISC_3_with_imtiaz_dim_connector
!        Setup:          Setup2
!        Solution:       Sweep
!
! Variables:
!        $_L_pin_on = 0.01nH
!        $_R_pin_on = 1ohm
!        Con_T = 0.012mm
!        Con_W = 0.11534mm
!        DUT = 30.8024mm
!        Gap = 0.71534mm
!        Gap_connector_vias = 1mm
!        Radius = 0.225mm
!        Space = 0.837mm
!        Sub_L = 9.5988mm
!        Sub_T = 0.05mm
!        Sub_W = 13.8408mm
!        Vias_N = 49
!        Vias_gap = 1mm
!        quater_wave_L = 1.2798mm
!
# GHz S RI R 50.000000
! Terminal data exported
! Port[1] = 1
! Port[2] = 2
0.1                            0.997023091605204 -0.0675558555863302 5.32721228472102E-10 -1.3971000949965E-10 5.32721228472102E-10 -1.3971000949965E-10 0.997023154629587 -0.067596118198253 
! Gamma         0.22624121765169 3.29134020163518 0.225791963894416 3.28942532479151 
! Port Impedance         50               0                50               0                
0.26725                        0.982088889624036 -0.17944156550637 3.00060220214434E-09 -2.41751384674081E-09 3.00060220214434E-09 -2.41751384674081E-09 0.982082068555   -0.179566059424298 
! Gamma         0.307076289464859 8.75128263744365 0.305996300213185 8.74678202504195 
! Port Impedance         50               0                50               0                
0.4345                         0.954865401909141 -0.288156445752472 4.49908019075048E-09 -8.83864088557848E-09 4.49908019075047E-09 -8.83864088557847E-09 0.954829932792282 -0.288360522822532 
! Gamma         0.401175848489992 14.1648180251123 0.399560973603604 14.1579193816929 
! Port Impedance         50               0                50               0                
0.60175                        0.915820811297524 -0.392711663341556 9.61952675462351E-10 -1.82500033012011E-08 9.61952675462351E-10 -1.82500033012012E-08 0.915740225751623 -0.392990026872226 
! Gamma         0.495880807025011 19.5520837358176 0.493610473295271 19.542863855903  
! Port Impedance         50               0                50               0                
0.769                          0.865557825461585 -0.49164188435357 -9.95126849903714E-09 -2.65013272912492E-08 -9.95126849903714E-09 -2.65013272912491E-08 0.865415971302595 -0.491989557717881 
! Gamma         0.587178383918063 24.9209466715602 0.584151817952849 24.9095596602953 
! Port Impedance         50               0                50               0                
0.93625                        0.805088830707095 -0.583633871789778 -2.72591598678348E-08 -2.8427759870616E-08 -2.72591598678348E-08 -2.8427759870616E-08 0.804869766823996 -0.584040209698879 
! Gamma         0.669883996456533 30.2773463757432 0.66605522083598 30.2639226375025 
! Port Impedance         50               0                50               0                
1.1035                         0.735459745746071 -0.667855595093291 -3.50931507749361E-08 -2.96754407196377E-08 -3.50931507749361E-08 -2.96754407196377E-08 0.735158739024531 -0.668324492032495 
! Gamma         0.742419961504869 35.6332984674542 0.737750024280458 35.6179142781615 
! Port Impedance         50               0                50               0                
1.27075                        0.65778828865302 -0.743158935749264 -3.55614884712409E-08 -3.49624744491945E-08 -3.5561488471241E-08 -3.49624744491945E-08 0.657387707219304 -0.743682416516874 
! Gamma         0.811665124161643 40.9849975406809 0.806133097985623 40.9677563147512 
! Port Impedance         50               0                50               0                
1.438                          0.573410639966897 -0.808769630517914 -3.58307486659523E-08 -4.07178510569975E-08 -3.58307486659524E-08 -4.07178510569976E-08 0.572895001328977 -0.809319100879278 
! Gamma         0.877673158328317 46.3302204897509 0.871272885140246 46.3112220589558 
! Port Impedance         50               0                50               0                
1.60525                        0.483618365475917 -0.864240788499739 -3.57477575620573E-08 -4.70665786486326E-08 -3.57477575620573E-08 -4.70665786486327E-08 0.482983443094669 -0.86478483040096 
! Gamma         0.940500101300028 51.6708760971112 0.933232892553851 51.6502042650352 
! Port Impedance         50               0                50               0                
1.7725                         0.389688559990656 -0.909291605138812 -3.50850294483938E-08 -5.41475970521885E-08 -3.50850294483938E-08 -5.41475970521885E-08 0.3889401774962  -0.909800081540542 
! Gamma         1.00047900491766 57.0083368301176 0.9923491598059  56.9860621969099 
! Port Impedance         50               0                50               0                
1.93975                        0.292867443425633 -0.943799142443863 -3.35030775580291E-08 -6.20973617298745E-08 -3.35030775580292E-08 -6.20973617298746E-08 0.292019528494988 -0.944245905226928 
! Gamma         1.05803119049795 62.3435508788396 1.04904350295146 62.3197337869802 
! Port Impedance         50               0                50               0                
2.107                          0.194352357769533 -0.967786422822881 -3.04972430007564E-08 -7.10066477341262E-08 -3.04972430007565E-08 -7.10066477341262E-08 0.193424774046923 -0.968150932823574 
! Gamma         1.11356846623397 67.6771550078688 1.10372706340245 67.651848086246  
! Port Impedance         50               0                50               0                
2.27425                        0.095275649944929 -0.981406791318408 -2.53349141985357E-08 -8.08224024595848E-08 -2.53349141985357E-08 -8.08224024595848E-08 0.0942920825569389 -0.981674912648324 
! Gamma         1.16745027536903 73.0095678997009 1.15675824825433 72.9828180532467 
! Port Impedance         50               0                50               0                
2.4415                         -0.00330780247510844 -0.984925785693437 -1.70185070512932E-08 -9.11485908696524E-08 -1.70185070512932E-08 -9.11485908696525E-08 -0.00432175929277747 -0.985089970085854 
! Gamma         1.21997087773485 78.3410605016859 1.20843033037495 78.3129103743241 
! Port Impedance         50               0                50               0                
2.60875                        -0.100428822877975 -0.978701954632204 -4.38608798797284E-09 -1.0090208802157E-07 -4.38608798797284E-09 -1.0090208802157E-07 -0.101447302377493 -0.978760993562665 
! Gamma         1.27136137549588 83.6718063349071 1.25897365986286 83.6422953405719 
! Port Impedance         50               0                50               0                
2.776                          -0.195208012228696 -0.963167877977713 1.3407839807252E-08 -1.07893604601556E-07 1.3407839807252E-08 -1.07893604601556E-07 -0.196206210575709 -0.963126367908305 
! Gamma         1.32179804227962 89.0019163027146 1.30856404578682 88.9710813296375 
! Port Impedance         50               0                50               0                
2.94325                        -0.286856132814982 -0.938812347799649 3.57790516540141E-08 -1.08794615162484E-07 3.57790516540141E-08 -1.08794615162484E-07 -0.287811350057493 -0.938679984563098 
! Gamma         1.37141247704121 94.331462213748  1.3573328935407  94.2993380943675 
! Port Impedance         50               0                50               0                
3.1105                         -0.374671437846081 -0.906164372213504 5.9409635597303E-08 -1.00439578552929E-07 5.94096355973029E-08 -1.00439578552929E-07 -0.375563851704674 -0.905955163412064 
! Gamma         1.42030142012267 99.6604923675314 1.40537697359067 99.6271121869514 
! Port Impedance         50               0                50               0                
3.27775                        -0.458034639351928 -0.86577940475069 7.86612074034844E-08 -8.25619938071216E-08 7.86612074034843E-08 -8.25619938071217E-08 -0.458847850711278 -0.865510864336694 
! Gamma         1.46853532223159 104.989041676485 1.45276693391114 104.954436973647 
! Port Impedance         50               0                50               0                
3.445                          -0.536402186235507 -0.818227993102467 8.89225287304415E-08 -5.91644450911801E-08 8.89225287304415E-08 -5.91644450911802E-08 -0.537123579858247 -0.817920360694453 
! Gamma         1.51616540092733 110.317138083415 1.49955430197379 110.28133898357  
! Port Impedance         50               0                50               0                
3.61225                        -0.609298461776446 -0.764086883032637 8.96703178528127E-08 -3.59487712589665E-08 8.96703178528127E-08 -3.59487712589667E-08 -0.609919425331628 -0.763762392608095 
! Gamma         1.56322922779057 115.644806498504 1.54577702468849 115.607841803594 
! Port Impedance         50               0                50               0                
3.7795                         -0.676307427375297 -0.703932501659168 8.36735036557056E-08 -1.67115866024757E-08 8.36735036557057E-08 -1.67115866024758E-08 -0.67682346826411 -0.703614710333768 
! Gamma         1.60975502003177 120.972071096702 1.59146372186652 120.933968351413 
! Port Impedance         50               0                50               0                
3.94675                        -0.73706415180906 -0.638336672183611 7.4257880058928E-08 -2.45683422707775E-09 7.4257880058928E-08 -2.4568342270779E-09 -0.73747494638357 -0.638049849626989 
! Gamma         1.65576485009528 126.298956548418 1.63663686675905 126.25974209341  
! Port Impedance         50               0                50               0                
4.114                          -0.791246582606166 -0.567864371637627 6.37398228462371E-08 7.4585112426683E-09 6.37398228462371E-08 7.45851124266827E-09 -0.79155598813474 -0.567632943338554 
! Gamma         1.70127698297806 131.625488571295 1.68131510249963 131.585187590693 
! Port Impedance         50               0                50               0                
4.28125                        -0.83856784451136 -0.49307332644359 5.32901506286373E-08 1.41565149423273E-08 5.32901506286374E-08 1.41565149423273E-08 -0.838783902448534 -0.492921357251973 
! Gamma         1.74630752834596 136.951694063724 1.72551488028471 136.910330631015 
! Port Impedance         50               0                50               0                
4.4485                         -0.878769292943906 -0.414515240112076 4.32983563667844E-08 1.86882337013459E-08 4.32983563667845E-08 1.86882337013458E-08 -0.878904253495561 -0.414465933440279 
! Gamma         1.79087156577179 142.277600993789 1.7692515762993  142.235198118264 
! Port Impedance         50               0                50               0                
4.61575                        -0.911614509678655 -0.332738456243679 3.36983986749622E-08 2.19141155166801E-08 3.36983986749623E-08 2.191411551668E-08 -0.911684908629019 -0.332813620016769 
! Gamma         1.83498387269288 147.603238157903 1.81254021574862 147.559817832535 
! Port Impedance         50               0                50               0                
4.783                          -0.936884404503998 -0.248291871045042 2.41372051437772E-08 2.45853693217236E-08 2.41372051437773E-08 2.45853693217235E-08 -0.93691120595528 -0.248511252130511 
! Gamma         1.87865935871055 152.928634882898 1.85539590652994 152.884218133738 
! Port Impedance         50               0                50               0                
4.95025                        -0.954373580215062 -0.161729913610358 1.40079743268617E-08 2.75601522199771E-08 1.40079743268618E-08 2.7560152219977E-08 -0.954382313833016 -0.16211023196483 
! Gamma         1.92191328758656 158.253820717819 1.89783406298224 158.208427654569 
! Port Impedance         50               0                50               0                
5.1175                         -0.96388812496378 -0.0736183929106402 2.41245188633594E-09 3.22974188829299E-08 2.41245188633602E-09 3.22974188829298E-08 -0.963908714516165 -0.074171901964363 
! Gamma         1.96476134982122 163.578825143113 1.93987048184986 163.532475010287 
! Port Impedance         50               0                50               0                
5.28475                        -0.965244989979238 0.0154590653950226 -1.15861379005444E-08 4.22222130783615E-08 -1.15861379005443E-08 4.22222130783614E-08 -0.965310623250568 0.0147263293492147 
! Gamma         2.00721963371658 168.903677312516 1.98152131776906 168.85638854051  
! Port Impedance         50               0                50               0                
5.452                          -0.958272968220897 0.104894440160633 -2.55248479843235E-08 6.62772663444496E-08 -2.55248479843235E-08 6.62772663444494E-08 -0.958417452930659 0.10398356859853 
! Gamma         2.04930453088007 174.228405834771 2.02280299377263 174.180196090175 
! Port Impedance         50               0                50               0                
5.61925                        -0.942814609215649 0.194049085549337 -1.32273583092329E-08 1.13824345919488E-07 -1.32273583092328E-08 1.13824345919488E-07 -0.94306944657411 0.192966262509555 
! Gamma         2.09103260272269 179.553038597081 2.06373207301973 179.503924831621 
! Port Impedance         50               0                50               0                
5.7865                         -0.918727165632336 0.282246537013094 5.09585620831442E-08 1.2385885795002E-07 5.09585620831443E-08 1.2385885795002E-07 -0.919123085962901 0.280998305387546 
! Gamma         2.13242042719665 184.877602628981 2.10432511074172 184.827601126552 
! Port Impedance         50               0                50               0                
5.95375                        -0.885884886767539 0.368757868004399 7.91227037378057E-08 8.39799670121603E-08 7.91227037378057E-08 8.39799670121601E-08 -0.886460208552691 0.367352656646176 
! Gamma         2.17348443939848 190.202124003431 2.14459849985072 190.151250424792 
! Port Impedance         50               0                50               0                
6.121                          -0.844198594862432 0.452783428099479 7.78805759329606E-08 5.65221008279965E-08 7.78805759329605E-08 5.65221008279964E-08 -0.844999101552492 0.451245214016252 
! Gamma         2.21424077539299 195.526627770969 2.18456831944583 195.474897195739 
! Port Impedance         50               0                50               0                
6.28825                        -0.793643900825241 0.533458144298798 7.26457618425775E-08 4.11907734986825E-08 7.26457618425774E-08 4.11907734986825E-08 -0.794706939098734 0.531829923059764 
! Gamma         2.25470512540657 200.8511379224   2.22425019229057 200.798564888126 
! Port Impedance         50               0                50               0                
6.4555                         -0.734266736057787 0.609862429354161 6.85483564279515E-08 3.11417587941925E-08 6.85483564279514E-08 3.11417587941925E-08 -0.735614575672439 0.608194734032974 
! Gamma         2.29489260016353 206.17567737551  2.26365915499489 206.122275913615 
! Port Impedance         50               0                50               0                
6.62275                        -0.666190790565504 0.681014470823263 6.59981684034475E-08 2.30009248103861E-08 6.59981684034475E-08 2.30009248103861E-08 -0.667834665762739 0.679359399846241 
! Gamma         2.33481761240872 211.500267981555 2.30280954293004 211.446051650073 
! Port Impedance         50               0                50               0                
6.79                           -0.589640854930423 0.745865262699352 6.46174454269374E-08 1.50347975436983E-08 6.46174454269374E-08 1.50347975436984E-08 -0.591583262834246 0.744276621087482 
! Gamma         2.37449377442309 216.824930547613 2.34171489068659 216.76991246068  
! Port Impedance         50               0                50               0                
6.95725                        -0.504970515023138 0.803304362142941 6.38015651970221E-08 6.1143757307238E-09 6.38015651970221E-08 6.11437573072379E-09 -0.507204462136306 0.801838015584732 
! Gamma         2.41393381147929 222.149684871378 2.38038784803895 222.093877725472 
! Port Impedance         50               0                50               0                
7.1245                         -0.412689993006477 0.852173512756739 6.26321269216292E-08 -4.64352077091077E-09 6.26321269216292E-08 -4.64352077091077E-09 -0.415197262582703 0.850886340209753 
! Gamma         2.45314949060675 227.47454978538  2.41884011081056 227.417965882376 
! Port Impedance         50               0                50               0                
7.29175                        -0.31349379315644 0.891287773377914 5.96169935112494E-08 -1.78209348623009E-08 5.96169935112495E-08 -1.78209348623009E-08 -0.316243388335706 0.890235379462812 
! Gamma         2.49215156366877 232.799543208073 2.45708236567232 232.74219447518  
! Port Impedance         50               0                50               0                
7.459                          -0.208286980182193 0.919465291068509 5.24895358305671E-08 -3.3160180950109E-08 5.2489535830567E-08 -3.3160180950109E-08 -0.211234241257331 0.918698815883236 
! Gamma         2.53094972354148 238.124682199652 2.49512424769662 238.066580206351 
! Port Impedance         50               0                50               0                
7.62625                        -0.0982077878844597 0.935566767626984 3.86683755803849E-08 -4.84920864911128E-08 3.86683755803849E-08 -4.84920864911128E-08 -0.101294475917492 0.935129088727859 
! Gamma         2.56955257208242 243.449983020809 2.53297430938829 243.391138992909 
! Port Impedance         50               0                50               0                
7.7935                         0.0153565930543892 0.938544996286869 1.72994729270801E-08 -5.9078069795296E-08 1.72994729270801E-08 -5.90780697952961E-08 0.0122010174697386 0.938466634202338 
! Gamma         2.60796759855332 248.775461192995 2.57063999989012 248.715886023941 
! Port Impedance         50               0                50               0                
7.96075                        0.130764805226056 0.927503807600622 -8.0314823911821E-09 -5.98206361752966E-08 -8.03148239118207E-09 -5.98206361752965E-08 0.127620539441266 0.927798917712002 
! Gamma         2.64620116719144 254.101131559014 2.60812765308913 254.040835818588 
! Port Impedance         50               0                50               0                
8.128                          0.246130725717792 0.901764379371858 -3.04077147873215E-08 -4.99822770059898E-08 -3.04077147873214E-08 -4.99822770059898E-08 0.243083555032957 0.90242730045241 
! Gamma         2.68425851268909 259.427008343047 2.64544248341332 259.366002283616 
! Port Impedance         50               0                50               0                
8.29525                        0.359351279792723 0.860935201134248 -4.50268253444564E-08 -3.40109182575713E-08 -4.50268253444564E-08 -3.40109182575714E-08 0.356487178514623 0.861938095331619 
! Gamma         2.72214374242759 264.753105209392 2.68258858819282 264.691398769847 
! Port Impedance         50               0                50               0                
8.4625                         0.468155537759388 0.804980218402893 -5.17321076213785E-08 -1.71583402429484E-08 -5.17321076213785E-08 -1.71583402429484E-08 0.465554251408436 0.806272341546354 
! Gamma         2.75985984441018 270.079435319406 2.7195689555556  270.017038126926 
! Port Impedance         50               0                50               0                
